Circuit: * Z:\home\danieltyukov\workspace\tud\tud-analog-cmos-design-1\hw1\Simulation_1.asc

C4: both pins shorted together -- ignoring.
Ignoring BSIM parameter XL
Ignoring BSIM parameter XW
Ignoring BSIM parameter ACM
Ignoring BSIM parameter LDIF
Ignoring BSIM parameter HDIF
Ignoring BSIM parameter TLEV
Ignoring BSIM parameter TLEVC
Ignoring BSIM parameter CALCACM
Ignoring BSIM parameter SFVTFLAGl
Ignoring BSIM parameter XL
Ignoring BSIM parameter XW
Ignoring BSIM parameter ACM
Ignoring BSIM parameter LDIF
Ignoring BSIM parameter HDIF
Ignoring BSIM parameter TLEV
Ignoring BSIM parameter TLEVC
Ignoring BSIM parameter CALCACM
Ignoring BSIM parameter SFVTFLAGl
Warning: Pd = 0 is less than W.
Warning: Ps = 0 is less than W.
Warning: Pd = 0 is less than W.
Warning: Ps = 0 is less than W.
Direct Newton iteration for .op point succeeded.
Semiconductor Device Operating Points:
                        --- BSIM3 MOSFETS ---
Name:        mn5         mn4         mn3         mn2         mn1
Model:      nch.9       nch.9       nch.9       nch.9       nch.9
Id:        1.61e-26    1.61e-28    1.16e-03    1.61e-28    1.61e-26
Vgs:       0.00e+00    8.62e-01    8.62e-01    8.62e-01    0.00e+00
Vds:       1.02e-17   -1.02e-17    8.62e-01   -1.02e-17    1.02e-17
Vbs:       0.00e+00   -1.02e-17    0.00e+00   -1.02e-17    0.00e+00
Vth:       5.27e-01    5.27e-01    5.25e-01    5.27e-01    5.27e-01
Vdsat:     4.21e-02    2.20e-01    2.21e-01    2.20e-01    4.21e-02
Gm:        4.60e-25    0.00e+00    4.68e-03    0.00e+00    4.60e-25
Gds:       1.86e-09    7.65e-03    1.80e-04    7.65e-03    1.86e-09
Gmb        1.55e-25    0.00e+00    1.36e-03    0.00e+00    1.55e-25
Cbd:       0.00e+00    0.00e+00    0.00e+00    0.00e+00    0.00e+00
Cbs:       0.00e+00    0.00e+00    0.00e+00    0.00e+00    0.00e+00
Cgsov:     3.95e-15    3.95e-15    3.95e-15    3.95e-15    3.95e-15
Cgdov:     3.95e-15    3.95e-15    3.95e-15    3.95e-15    3.95e-15
Cgbov:     3.50e-16    3.50e-16    3.50e-16    3.50e-16    3.50e-16
dQgdVgb:   1.33e-14    2.37e-14    2.10e-14    2.37e-14    1.33e-14
dQgdVdb:  -3.95e-15   -1.12e-14   -3.93e-15   -1.12e-14   -3.95e-15
dQgdVsb:  -3.95e-15   -1.13e-14   -1.51e-14   -1.13e-14   -3.95e-15
dQddVgb:  -3.95e-15   -1.16e-14   -3.97e-15   -1.16e-14   -3.95e-15
dQddVdb:   3.95e-15    2.48e-14    3.96e-15    2.48e-14    3.95e-15
dQddVsb:  -2.49e-21   -1.09e-14    1.15e-17   -1.09e-14   -2.49e-21
dQbdVgb:  -5.42e-15   -4.08e-16   -2.84e-15   -4.08e-16   -5.42e-15
dQbdVdb:  -1.67e-21   -6.63e-15    1.06e-18   -6.63e-15   -1.67e-21
dQbdVsb:   3.57e-19    1.27e-15   -2.09e-15    1.27e-15    3.57e-19

Name:        mp5         mp4         mp3         mp2         mp1
Model:      pch.9       pch.9       pch.9       pch.9       pch.9
Id:       -2.01e-04   -2.01e-04   -1.50e-03   -2.00e-04   -2.00e-04
Vgs:      -6.56e-01   -6.07e-01   -8.49e-01   -6.59e-01   -6.07e-01
Vds:      -6.06e-01   -1.94e-01   -8.49e-01   -4.17e-01   -1.90e-01
Vbs:       1.94e-01    0.00e+00    0.00e+00    1.90e-01    0.00e+00
Vth:      -5.56e-01   -4.95e-01   -4.92e-01   -5.56e-01   -4.95e-01
Vdsat:    -1.25e-01   -1.30e-01   -2.86e-01   -1.27e-01   -1.30e-01
Gm:        2.50e-03    2.31e-03    6.95e-03    2.45e-03    2.30e-03
Gds:       5.73e-05    1.79e-04    2.65e-04    7.49e-05    1.85e-04
Gmb        7.81e-04    7.93e-04    2.38e-03    7.69e-04    7.90e-04
Cbd:       0.00e+00    0.00e+00    0.00e+00    0.00e+00    0.00e+00
Cbs:       0.00e+00    0.00e+00    0.00e+00    0.00e+00    0.00e+00
Cgsov:     1.91e-14    1.91e-14    1.91e-14    1.91e-14    1.91e-14
Cgdov:     1.91e-14    1.91e-14    1.91e-14    1.91e-14    1.91e-14
Cgbov:     2.90e-15    2.90e-15    2.90e-15    2.90e-15    2.90e-15
dQgdVgb:   1.05e-13    1.06e-13    1.11e-13    1.05e-13    1.06e-13
dQgdVdb:  -1.89e-14   -1.93e-14   -1.89e-14   -1.89e-14   -1.93e-14
dQgdVsb:  -7.78e-14   -7.91e-14   -8.65e-14   -7.83e-14   -7.91e-14
dQddVgb:  -1.92e-14   -2.04e-14   -1.92e-14   -1.93e-14   -2.05e-14
dQddVdb:   1.91e-14    2.02e-14    1.91e-14    1.92e-14    2.02e-14
dQddVsb:   9.86e-17    6.89e-16    6.44e-17    1.99e-16    7.04e-16
dQbdVgb:  -1.67e-14   -1.66e-14   -1.76e-14   -1.66e-14   -1.66e-14
dQbdVdb:   1.51e-17   -3.53e-16    2.07e-18   -7.02e-18   -3.75e-16
dQbdVsb:  -6.84e-15   -8.68e-15   -7.24e-15   -6.90e-15   -8.68e-15



Date: Fri Feb 13 20:00:28 2026
Total elapsed time: 0.070 seconds.

tnom = 27
temp = 27
method = trap
totiter = 11
traniter = 0
tranpoints = 0
accept = 0
rejected = 0
matrix size = 13
fillins = 0
solver = Normal
Matrix Compiler1: 674 bytes object code size
Matrix Compiler2:      87 opcodes
